Sample in Buffer,Sample in Window,TRIGGER,sc_interrupt_sys/inst[31:0],sc_interrupt_sys/pc[31:0],sc_interrupt_sys/SI_ClkIn,sc_interrupt_sys/SI_Reset_N,sc_interrupt_sys/lock,sc_interrupt_sys/counter[26:0],sc_interrupt_sys/IO_Switch[15:0],sc_interrupt_sys/IO_LED[15:0],sc_interrupt_sys/dbg_imem_cs,sc_interrupt_sys/dbg_imem_we,sc_interrupt_sys/dbg_imem_addr[31:0],sc_interrupt_sys/dbg_imem_din[31:0],sc_interrupt_sys/dbg_dmem_cs,sc_interrupt_sys/dbg_dmem_we,sc_interrupt_sys/dbg_dmem_addr[31:0],sc_interrupt_sys/dbg_dmem_din[31:0],sc_interrupt_sys/dbg_halt_cpu,sc_interrupt_sys/IO_7SEGEN_N[7:0],sc_interrupt_sys/IO_7SEG_N[6:0],sc_interrupt_sys/intr
Radix - UNSIGNED,UNSIGNED,UNSIGNED,HEX,HEX,HEX,HEX,HEX,HEX,HEX,HEX,HEX,HEX,HEX,HEX,HEX,HEX,HEX,HEX,HEX,HEX,HEX,HEX
0,0,1,00552023,000000f8,1,1,1,323af3c,0000,0000,0,0,00000000,00000000,0,0,00000000,00000000,0,ef,01,1
1,1,0,00552023,000000f8,0,1,1,323af3c,0000,0000,0,0,00000000,00000000,0,0,00000000,00000000,0,ef,01,1
2,2,0,00552823,000000fc,1,1,1,323af3d,0000,0000,0,0,00000000,00000000,0,0,00000000,00000000,0,ef,01,1
3,3,0,00552823,000000fc,0,1,1,323af3d,0000,0000,0,0,00000000,00000000,0,0,00000000,00000000,0,ef,01,1
4,4,0,34202373,00000008,1,1,1,323af3e,0000,0000,0,0,00000000,00000000,0,0,00000000,00000000,0,ef,01,1
5,5,0,34202373,00000008,0,1,1,323af3e,0000,0000,0,0,00000000,00000000,0,0,00000000,00000000,0,ef,01,1
6,6,0,00f37393,0000000c,1,1,1,323af3f,0000,0000,0,0,00000000,00000000,0,0,00000000,00000000,0,ef,01,1
7,7,0,00f37393,0000000c,0,1,1,323af3f,0000,0000,0,0,00000000,00000000,0,0,00000000,00000000,0,ef,01,1
8,8,0,02000e13,00000010,1,1,1,323af40,0000,0000,0,0,00000000,00000000,0,0,00000000,00000000,0,ef,01,1
9,9,0,02000e13,00000010,0,1,1,323af40,0000,0000,0,0,00000000,00000000,0,0,00000000,00000000,0,ef,01,1
10,10,0,01c383b3,00000014,1,1,1,323af41,0000,0000,0,0,00000000,00000000,0,0,00000000,00000000,0,ef,01,1
11,11,0,01c383b3,00000014,0,1,1,323af41,0000,0000,0,0,00000000,00000000,0,0,00000000,00000000,0,ef,01,1
12,12,0,0003a383,00000018,1,1,1,323af42,0000,0000,0,0,00000000,00000000,0,0,00000000,00000000,0,ef,01,1
13,13,0,0003a383,00000018,0,1,1,323af42,0000,0000,0,0,00000000,00000000,0,0,00000000,00000000,0,ef,01,1
14,14,0,00038067,0000001c,1,1,1,323af43,0000,0000,0,0,00000000,00000000,0,0,00000000,00000000,0,ef,01,1
15,15,0,00038067,0000001c,0,1,1,323af43,0000,0000,0,0,00000000,00000000,0,0,00000000,00000000,0,ef,01,1
16,16,0,00000013,00000024,1,1,1,323af44,0000,0000,0,0,00000000,00000000,0,0,00000000,00000000,0,ef,01,1
17,17,0,00000013,00000024,0,1,1,323af44,0000,0000,0,0,00000000,00000000,0,0,00000000,00000000,0,ef,01,1
18,18,0,30200073,00000028,1,1,1,323af45,0000,0000,0,0,00000000,00000000,0,0,00000000,00000000,0,ef,01,1
19,19,0,30200073,00000028,0,1,1,323af45,0000,0000,0,0,00000000,00000000,0,0,00000000,00000000,0,ef,01,1
20,20,0,00552823,000000fc,1,1,1,323af46,0000,0000,0,0,00000000,00000000,0,0,00000000,00000000,0,ef,01,1
21,21,0,00552823,000000fc,0,1,1,323af46,0000,0000,0,0,00000000,00000000,0,0,00000000,00000000,0,ef,01,1
22,22,0,34202373,00000008,1,1,1,323af47,0000,0000,0,0,00000000,00000000,0,0,00000000,00000000,0,ef,01,1
23,23,0,34202373,00000008,0,1,1,323af47,0000,0000,0,0,00000000,00000000,0,0,00000000,00000000,0,ef,01,1
24,24,0,00f37393,0000000c,1,1,1,323af48,0000,0000,0,0,00000000,00000000,0,0,00000000,00000000,0,ef,01,1
25,25,0,00f37393,0000000c,0,1,1,323af48,0000,0000,0,0,00000000,00000000,0,0,00000000,00000000,0,ef,01,1
26,26,0,02000e13,00000010,1,1,1,323af49,0000,0000,0,0,00000000,00000000,0,0,00000000,00000000,0,ef,01,1
27,27,0,02000e13,00000010,0,1,1,323af49,0000,0000,0,0,00000000,00000000,0,0,00000000,00000000,0,ef,01,1
28,28,0,01c383b3,00000014,1,1,1,323af4a,0000,0000,0,0,00000000,00000000,0,0,00000000,00000000,0,ef,01,1
29,29,0,01c383b3,00000014,0,1,1,323af4a,0000,0000,0,0,00000000,00000000,0,0,00000000,00000000,0,ef,01,1
30,30,0,0003a383,00000018,1,1,1,323af4b,0000,0000,0,0,00000000,00000000,0,0,00000000,00000000,0,ef,01,1
31,31,0,0003a383,00000018,0,1,1,323af4b,0000,0000,0,0,00000000,00000000,0,0,00000000,00000000,0,ef,01,1
32,32,0,00038067,0000001c,1,1,1,323af4c,0000,0000,0,0,00000000,00000000,0,0,00000000,00000000,0,ef,01,1
33,33,0,00038067,0000001c,0,1,1,323af4c,0000,0000,0,0,00000000,00000000,0,0,00000000,00000000,0,ef,01,1
34,34,0,00000013,00000024,1,1,1,323af4d,0000,0000,0,0,00000000,00000000,0,0,00000000,00000000,0,ef,01,1
35,35,0,00000013,00000024,0,1,1,323af4d,0000,0000,0,0,00000000,00000000,0,0,00000000,00000000,0,ef,01,1
36,36,0,30200073,00000028,1,1,1,323af4e,0000,0000,0,0,00000000,00000000,0,0,00000000,00000000,0,ef,01,1
37,37,0,30200073,00000028,0,1,1,323af4e,0000,0000,0,0,00000000,00000000,0,0,00000000,00000000,0,ef,01,1
38,38,0,00552823,000000fc,1,1,1,323af4f,0000,0000,0,0,00000000,00000000,0,0,00000000,00000000,0,ef,01,1
39,39,0,00552823,000000fc,0,1,1,323af4f,0000,0000,0,0,00000000,00000000,0,0,00000000,00000000,0,ef,01,1
40,40,0,34202373,00000008,1,1,1,323af50,0000,0000,0,0,00000000,00000000,0,0,00000000,00000000,0,ef,01,1
41,41,0,34202373,00000008,0,1,1,323af50,0000,0000,0,0,00000000,00000000,0,0,00000000,00000000,0,ef,01,1
42,42,0,00f37393,0000000c,1,1,1,323af51,0000,0000,0,0,00000000,00000000,0,0,00000000,00000000,0,ef,01,1
43,43,0,00f37393,0000000c,0,1,1,323af51,0000,0000,0,0,00000000,00000000,0,0,00000000,00000000,0,ef,01,1
44,44,0,02000e13,00000010,1,1,1,323af52,0000,0000,0,0,00000000,00000000,0,0,00000000,00000000,0,ef,01,1
45,45,0,02000e13,00000010,0,1,1,323af52,0000,0000,0,0,00000000,00000000,0,0,00000000,00000000,0,ef,01,1
46,46,0,01c383b3,00000014,1,1,1,323af53,0000,0000,0,0,00000000,00000000,0,0,00000000,00000000,0,ef,01,1
47,47,0,01c383b3,00000014,0,1,1,323af53,0000,0000,0,0,00000000,00000000,0,0,00000000,00000000,0,ef,01,1
48,48,0,0003a383,00000018,1,1,1,323af54,0000,0000,0,0,00000000,00000000,0,0,00000000,00000000,0,ef,01,1
49,49,0,0003a383,00000018,0,1,1,323af54,0000,0000,0,0,00000000,00000000,0,0,00000000,00000000,0,ef,01,1
50,50,0,00038067,0000001c,1,1,1,323af55,0000,0000,0,0,00000000,00000000,0,0,00000000,00000000,0,ef,01,1
51,51,0,00038067,0000001c,0,1,1,323af55,0000,0000,0,0,00000000,00000000,0,0,00000000,00000000,0,ef,01,1
52,52,0,00000013,00000024,1,1,1,323af56,0000,0000,0,0,00000000,00000000,0,0,00000000,00000000,0,ef,01,1
53,53,0,00000013,00000024,0,1,1,323af56,0000,0000,0,0,00000000,00000000,0,0,00000000,00000000,0,ef,01,1
54,54,0,30200073,00000028,1,1,1,323af57,0000,0000,0,0,00000000,00000000,0,0,00000000,00000000,0,ef,01,1
55,55,0,30200073,00000028,0,1,1,323af57,0000,0000,0,0,00000000,00000000,0,0,00000000,00000000,0,ef,01,1
56,56,0,00552823,000000fc,1,1,1,323af58,0000,0000,0,0,00000000,00000000,0,0,00000000,00000000,0,ef,01,1
57,57,0,00552823,000000fc,0,1,1,323af58,0000,0000,0,0,00000000,00000000,0,0,00000000,00000000,0,ef,01,1
58,58,0,34202373,00000008,1,1,1,323af59,0000,0000,0,0,00000000,00000000,0,0,00000000,00000000,0,ef,01,1
59,59,0,34202373,00000008,0,1,1,323af59,0000,0000,0,0,00000000,00000000,0,0,00000000,00000000,0,ef,01,1
60,60,0,00f37393,0000000c,1,1,1,323af5a,0000,0000,0,0,00000000,00000000,0,0,00000000,00000000,0,ef,01,1
61,61,0,00f37393,0000000c,0,1,1,323af5a,0000,0000,0,0,00000000,00000000,0,0,00000000,00000000,0,ef,01,1
62,62,0,02000e13,00000010,1,1,1,323af5b,0000,0000,0,0,00000000,00000000,0,0,00000000,00000000,0,ef,01,1
63,63,0,02000e13,00000010,0,1,1,323af5b,0000,0000,0,0,00000000,00000000,0,0,00000000,00000000,0,ef,01,1
64,64,0,01c383b3,00000014,1,1,1,323af5c,0000,0000,0,0,00000000,00000000,0,0,00000000,00000000,0,ef,01,1
65,65,0,01c383b3,00000014,0,1,1,323af5c,0000,0000,0,0,00000000,00000000,0,0,00000000,00000000,0,ef,01,1
66,66,0,0003a383,00000018,1,1,1,323af5d,0000,0000,0,0,00000000,00000000,0,0,00000000,00000000,0,ef,01,1
67,67,0,0003a383,00000018,0,1,1,323af5d,0000,0000,0,0,00000000,00000000,0,0,00000000,00000000,0,ef,01,1
68,68,0,00038067,0000001c,1,1,1,323af5e,0000,0000,0,0,00000000,00000000,0,0,00000000,00000000,0,ef,01,1
69,69,0,00038067,0000001c,0,1,1,323af5e,0000,0000,0,0,00000000,00000000,0,0,00000000,00000000,0,ef,01,1
70,70,0,00000013,00000024,1,1,1,323af5f,0000,0000,0,0,00000000,00000000,0,0,00000000,00000000,0,ef,01,1
71,71,0,00000013,00000024,0,1,1,323af5f,0000,0000,0,0,00000000,00000000,0,0,00000000,00000000,0,ef,01,1
72,72,0,30200073,00000028,1,1,1,323af60,0000,0000,0,0,00000000,00000000,0,0,00000000,00000000,0,ef,01,1
73,73,0,30200073,00000028,0,1,1,323af60,0000,0000,0,0,00000000,00000000,0,0,00000000,00000000,0,ef,01,1
74,74,0,00552823,000000fc,1,1,1,323af61,0000,0000,0,0,00000000,00000000,0,0,00000000,00000000,0,ef,01,1
75,75,0,00552823,000000fc,0,1,1,323af61,0000,0000,0,0,00000000,00000000,0,0,00000000,00000000,0,ef,01,1
76,76,0,34202373,00000008,1,1,1,323af62,0000,0000,0,0,00000000,00000000,0,0,00000000,00000000,0,ef,01,1
77,77,0,34202373,00000008,0,1,1,323af62,0000,0000,0,0,00000000,00000000,0,0,00000000,00000000,0,ef,01,1
78,78,0,00f37393,0000000c,1,1,1,323af63,0000,0000,0,0,00000000,00000000,0,0,00000000,00000000,0,ef,01,1
79,79,0,00f37393,0000000c,0,1,1,323af63,0000,0000,0,0,00000000,00000000,0,0,00000000,00000000,0,ef,01,1
80,80,0,02000e13,00000010,1,1,1,323af64,0000,0000,0,0,00000000,00000000,0,0,00000000,00000000,0,ef,01,1
81,81,0,02000e13,00000010,0,1,1,323af64,0000,0000,0,0,00000000,00000000,0,0,00000000,00000000,0,ef,01,1
82,82,0,01c383b3,00000014,1,1,1,323af65,0000,0000,0,0,00000000,00000000,0,0,00000000,00000000,0,ef,01,1
83,83,0,01c383b3,00000014,0,1,1,323af65,0000,0000,0,0,00000000,00000000,0,0,00000000,00000000,0,ef,01,1
84,84,0,0003a383,00000018,1,1,1,323af66,0000,0000,0,0,00000000,00000000,0,0,00000000,00000000,0,ef,01,1
85,85,0,0003a383,00000018,0,1,1,323af66,0000,0000,0,0,00000000,00000000,0,0,00000000,00000000,0,ef,01,1
86,86,0,00038067,0000001c,1,1,1,323af67,0000,0000,0,0,00000000,00000000,0,0,00000000,00000000,0,ef,01,1
87,87,0,00038067,0000001c,0,1,1,323af67,0000,0000,0,0,00000000,00000000,0,0,00000000,00000000,0,ef,01,1
88,88,0,00000013,00000024,1,1,1,323af68,0000,0000,0,0,00000000,00000000,0,0,00000000,00000000,0,ef,01,1
89,89,0,00000013,00000024,0,1,1,323af68,0000,0000,0,0,00000000,00000000,0,0,00000000,00000000,0,ef,01,1
90,90,0,30200073,00000028,1,1,1,323af69,0000,0000,0,0,00000000,00000000,0,0,00000000,00000000,0,ef,01,1
91,91,0,30200073,00000028,0,1,1,323af69,0000,0000,0,0,00000000,00000000,0,0,00000000,00000000,0,ef,01,1
92,92,0,00552823,000000fc,1,1,1,323af6a,0000,0000,0,0,00000000,00000000,0,0,00000000,00000000,0,ef,01,1
93,93,0,00552823,000000fc,0,1,1,323af6a,0000,0000,0,0,00000000,00000000,0,0,00000000,00000000,0,ef,01,1
94,94,0,34202373,00000008,1,1,1,323af6b,0000,0000,0,0,00000000,00000000,0,0,00000000,00000000,0,ef,01,1
95,95,0,34202373,00000008,0,1,1,323af6b,0000,0000,0,0,00000000,00000000,0,0,00000000,00000000,0,ef,01,1
96,96,0,00f37393,0000000c,1,1,1,323af6c,0000,0000,0,0,00000000,00000000,0,0,00000000,00000000,0,ef,01,1
97,97,0,00f37393,0000000c,0,1,1,323af6c,0000,0000,0,0,00000000,00000000,0,0,00000000,00000000,0,ef,01,1
98,98,0,02000e13,00000010,1,1,1,323af6d,0000,0000,0,0,00000000,00000000,0,0,00000000,00000000,0,ef,01,1
99,99,0,02000e13,00000010,0,1,1,323af6d,0000,0000,0,0,00000000,00000000,0,0,00000000,00000000,0,ef,01,1
100,100,0,01c383b3,00000014,1,1,1,323af6e,0000,0000,0,0,00000000,00000000,0,0,00000000,00000000,0,ef,01,1
101,101,0,01c383b3,00000014,0,1,1,323af6e,0000,0000,0,0,00000000,00000000,0,0,00000000,00000000,0,ef,01,1
102,102,0,0003a383,00000018,1,1,1,323af6f,0000,0000,0,0,00000000,00000000,0,0,00000000,00000000,0,ef,01,1
103,103,0,0003a383,00000018,0,1,1,323af6f,0000,0000,0,0,00000000,00000000,0,0,00000000,00000000,0,ef,01,1
104,104,0,00038067,0000001c,1,1,1,323af70,0000,0000,0,0,00000000,00000000,0,0,00000000,00000000,0,ef,01,1
105,105,0,00038067,0000001c,0,1,1,323af70,0000,0000,0,0,00000000,00000000,0,0,00000000,00000000,0,ef,01,1
106,106,0,00000013,00000024,1,1,1,323af71,0000,0000,0,0,00000000,00000000,0,0,00000000,00000000,0,ef,01,1
107,107,0,00000013,00000024,0,1,1,323af71,0000,0000,0,0,00000000,00000000,0,0,00000000,00000000,0,ef,01,1
108,108,0,30200073,00000028,1,1,1,323af72,0000,0000,0,0,00000000,00000000,0,0,00000000,00000000,0,ef,01,1
109,109,0,30200073,00000028,0,1,1,323af72,0000,0000,0,0,00000000,00000000,0,0,00000000,00000000,0,ef,01,1
110,110,0,00552823,000000fc,1,1,1,323af73,0000,0000,0,0,00000000,00000000,0,0,00000000,00000000,0,ef,01,1
111,111,0,00552823,000000fc,0,1,1,323af73,0000,0000,0,0,00000000,00000000,0,0,00000000,00000000,0,ef,01,1
112,112,0,34202373,00000008,1,1,1,323af74,0000,0000,0,0,00000000,00000000,0,0,00000000,00000000,0,ef,01,1
113,113,0,34202373,00000008,0,1,1,323af74,0000,0000,0,0,00000000,00000000,0,0,00000000,00000000,0,ef,01,1
114,114,0,00f37393,0000000c,1,1,1,323af75,0000,0000,0,0,00000000,00000000,0,0,00000000,00000000,0,ef,01,1
115,115,0,00f37393,0000000c,0,1,1,323af75,0000,0000,0,0,00000000,00000000,0,0,00000000,00000000,0,ef,01,1
116,116,0,02000e13,00000010,1,1,1,323af76,0000,0000,0,0,00000000,00000000,0,0,00000000,00000000,0,ef,01,1
117,117,0,02000e13,00000010,0,1,1,323af76,0000,0000,0,0,00000000,00000000,0,0,00000000,00000000,0,ef,01,1
118,118,0,01c383b3,00000014,1,1,1,323af77,0000,0000,0,0,00000000,00000000,0,0,00000000,00000000,0,ef,01,1
119,119,0,01c383b3,00000014,0,1,1,323af77,0000,0000,0,0,00000000,00000000,0,0,00000000,00000000,0,ef,01,1
120,120,0,0003a383,00000018,1,1,1,323af78,0000,0000,0,0,00000000,00000000,0,0,00000000,00000000,0,ef,01,1
121,121,0,0003a383,00000018,0,1,1,323af78,0000,0000,0,0,00000000,00000000,0,0,00000000,00000000,0,ef,01,1
122,122,0,00038067,0000001c,1,1,1,323af79,0000,0000,0,0,00000000,00000000,0,0,00000000,00000000,0,ef,01,1
123,123,0,00038067,0000001c,0,1,1,323af79,0000,0000,0,0,00000000,00000000,0,0,00000000,00000000,0,ef,01,1
124,124,0,00000013,00000024,1,1,1,323af7a,0000,0000,0,0,00000000,00000000,0,0,00000000,00000000,0,ef,01,1
125,125,0,00000013,00000024,0,1,1,323af7a,0000,0000,0,0,00000000,00000000,0,0,00000000,00000000,0,ef,01,1
126,126,0,30200073,00000028,1,1,1,323af7b,0000,0000,0,0,00000000,00000000,0,0,00000000,00000000,0,ef,01,1
127,127,0,30200073,00000028,0,1,1,323af7b,0000,0000,0,0,00000000,00000000,0,0,00000000,00000000,0,ef,01,1
128,128,0,00552823,000000fc,1,1,1,323af7c,0000,0000,0,0,00000000,00000000,0,0,00000000,00000000,0,ef,01,1
129,129,0,00552823,000000fc,0,1,1,323af7c,0000,0000,0,0,00000000,00000000,0,0,00000000,00000000,0,ef,01,1
130,130,0,34202373,00000008,1,1,1,323af7d,0000,0000,0,0,00000000,00000000,0,0,00000000,00000000,0,ef,01,1
131,131,0,34202373,00000008,0,1,1,323af7d,0000,0000,0,0,00000000,00000000,0,0,00000000,00000000,0,ef,01,1
132,132,0,00f37393,0000000c,1,1,1,323af7e,0000,0000,0,0,00000000,00000000,0,0,00000000,00000000,0,ef,01,1
133,133,0,00f37393,0000000c,0,1,1,323af7e,0000,0000,0,0,00000000,00000000,0,0,00000000,00000000,0,ef,01,1
134,134,0,02000e13,00000010,1,1,1,323af7f,0000,0000,0,0,00000000,00000000,0,0,00000000,00000000,0,ef,01,1
135,135,0,02000e13,00000010,0,1,1,323af7f,0000,0000,0,0,00000000,00000000,0,0,00000000,00000000,0,ef,01,1
136,136,0,01c383b3,00000014,1,1,1,323af80,0000,0000,0,0,00000000,00000000,0,0,00000000,00000000,0,ef,01,1
137,137,0,01c383b3,00000014,0,1,1,323af80,0000,0000,0,0,00000000,00000000,0,0,00000000,00000000,0,ef,01,1
138,138,0,0003a383,00000018,1,1,1,323af81,0000,0000,0,0,00000000,00000000,0,0,00000000,00000000,0,ef,01,1
139,139,0,0003a383,00000018,0,1,1,323af81,0000,0000,0,0,00000000,00000000,0,0,00000000,00000000,0,ef,01,1
140,140,0,00038067,0000001c,1,1,1,323af82,0000,0000,0,0,00000000,00000000,0,0,00000000,00000000,0,ef,01,1
141,141,0,00038067,0000001c,0,1,1,323af82,0000,0000,0,0,00000000,00000000,0,0,00000000,00000000,0,ef,01,1
142,142,0,00000013,00000024,1,1,1,323af83,0000,0000,0,0,00000000,00000000,0,0,00000000,00000000,0,ef,01,1
143,143,0,00000013,00000024,0,1,1,323af83,0000,0000,0,0,00000000,00000000,0,0,00000000,00000000,0,ef,01,1
144,144,0,30200073,00000028,1,1,1,323af84,0000,0000,0,0,00000000,00000000,0,0,00000000,00000000,0,ef,01,1
145,145,0,30200073,00000028,0,1,1,323af84,0000,0000,0,0,00000000,00000000,0,0,00000000,00000000,0,ef,01,1
146,146,0,00552823,000000fc,1,1,1,323af85,0000,0000,0,0,00000000,00000000,0,0,00000000,00000000,0,ef,01,1
147,147,0,00552823,000000fc,0,1,1,323af85,0000,0000,0,0,00000000,00000000,0,0,00000000,00000000,0,ef,01,1
148,148,0,34202373,00000008,1,1,1,323af86,0000,0000,0,0,00000000,00000000,0,0,00000000,00000000,0,ef,01,1
149,149,0,34202373,00000008,0,1,1,323af86,0000,0000,0,0,00000000,00000000,0,0,00000000,00000000,0,ef,01,1
150,150,0,00f37393,0000000c,1,1,1,323af87,0000,0000,0,0,00000000,00000000,0,0,00000000,00000000,0,ef,01,1
151,151,0,00f37393,0000000c,0,1,1,323af87,0000,0000,0,0,00000000,00000000,0,0,00000000,00000000,0,ef,01,1
152,152,0,02000e13,00000010,1,1,1,323af88,0000,0000,0,0,00000000,00000000,0,0,00000000,00000000,0,ef,01,1
153,153,0,02000e13,00000010,0,1,1,323af88,0000,0000,0,0,00000000,00000000,0,0,00000000,00000000,0,ef,01,1
154,154,0,01c383b3,00000014,1,1,1,323af89,0000,0000,0,0,00000000,00000000,0,0,00000000,00000000,0,ef,01,1
155,155,0,01c383b3,00000014,0,1,1,323af89,0000,0000,0,0,00000000,00000000,0,0,00000000,00000000,0,ef,01,1
156,156,0,0003a383,00000018,1,1,1,323af8a,0000,0000,0,0,00000000,00000000,0,0,00000000,00000000,0,ef,01,1
157,157,0,0003a383,00000018,0,1,1,323af8a,0000,0000,0,0,00000000,00000000,0,0,00000000,00000000,0,ef,01,1
158,158,0,00038067,0000001c,1,1,1,323af8b,0000,0000,0,0,00000000,00000000,0,0,00000000,00000000,0,ef,01,1
159,159,0,00038067,0000001c,0,1,1,323af8b,0000,0000,0,0,00000000,00000000,0,0,00000000,00000000,0,ef,01,1
160,160,0,00000013,00000024,1,1,1,323af8c,0000,0000,0,0,00000000,00000000,0,0,00000000,00000000,0,ef,01,1
161,161,0,00000013,00000024,0,1,1,323af8c,0000,0000,0,0,00000000,00000000,0,0,00000000,00000000,0,ef,01,1
162,162,0,30200073,00000028,1,1,1,323af8d,0000,0000,0,0,00000000,00000000,0,0,00000000,00000000,0,ef,01,1
163,163,0,30200073,00000028,0,1,1,323af8d,0000,0000,0,0,00000000,00000000,0,0,00000000,00000000,0,ef,01,1
164,164,0,00552823,000000fc,1,1,1,323af8e,0000,0000,0,0,00000000,00000000,0,0,00000000,00000000,0,ef,01,1
165,165,0,00552823,000000fc,0,1,1,323af8e,0000,0000,0,0,00000000,00000000,0,0,00000000,00000000,0,ef,01,1
166,166,0,34202373,00000008,1,1,1,323af8f,0000,0000,0,0,00000000,00000000,0,0,00000000,00000000,0,ef,01,1
167,167,0,34202373,00000008,0,1,1,323af8f,0000,0000,0,0,00000000,00000000,0,0,00000000,00000000,0,ef,01,1
168,168,0,00f37393,0000000c,1,1,1,323af90,0000,0000,0,0,00000000,00000000,0,0,00000000,00000000,0,ef,01,1
169,169,0,00f37393,0000000c,0,1,1,323af90,0000,0000,0,0,00000000,00000000,0,0,00000000,00000000,0,ef,01,1
170,170,0,02000e13,00000010,1,1,1,323af91,0000,0000,0,0,00000000,00000000,0,0,00000000,00000000,0,ef,01,1
171,171,0,02000e13,00000010,0,1,1,323af91,0000,0000,0,0,00000000,00000000,0,0,00000000,00000000,0,ef,01,1
172,172,0,01c383b3,00000014,1,1,1,323af92,0000,0000,0,0,00000000,00000000,0,0,00000000,00000000,0,ef,01,1
173,173,0,01c383b3,00000014,0,1,1,323af92,0000,0000,0,0,00000000,00000000,0,0,00000000,00000000,0,ef,01,1
174,174,0,0003a383,00000018,1,1,1,323af93,0000,0000,0,0,00000000,00000000,0,0,00000000,00000000,0,ef,01,1
175,175,0,0003a383,00000018,0,1,1,323af93,0000,0000,0,0,00000000,00000000,0,0,00000000,00000000,0,ef,01,1
176,176,0,00038067,0000001c,1,1,1,323af94,0000,0000,0,0,00000000,00000000,0,0,00000000,00000000,0,ef,01,1
177,177,0,00038067,0000001c,0,1,1,323af94,0000,0000,0,0,00000000,00000000,0,0,00000000,00000000,0,ef,01,1
178,178,0,00000013,00000024,1,1,1,323af95,0000,0000,0,0,00000000,00000000,0,0,00000000,00000000,0,ef,01,1
179,179,0,00000013,00000024,0,1,1,323af95,0000,0000,0,0,00000000,00000000,0,0,00000000,00000000,0,ef,01,1
180,180,0,30200073,00000028,1,1,1,323af96,0000,0000,0,0,00000000,00000000,0,0,00000000,00000000,0,ef,01,1
181,181,0,30200073,00000028,0,1,1,323af96,0000,0000,0,0,00000000,00000000,0,0,00000000,00000000,0,ef,01,1
182,182,0,00552823,000000fc,1,1,1,323af97,0000,0000,0,0,00000000,00000000,0,0,00000000,00000000,0,ef,01,1
